<Qucs Dataset 0.0.19>
<indep frequency 201>
  +3.00000000000000000000e+06
  +3.04089700604945514351e+06
  +3.08235153380018100142e+06
  +3.12437118357497267425e+06
  +3.16696365930677577853e+06
  +3.21013676995113398880e+06
  +3.25389843091789167374e+06
  +3.29825666552241193131e+06
  +3.34321960645658848807e+06
  +3.38879549727989314124e+06
  +3.43499269393076701090e+06
  +3.48181966625860799104e+06
  +3.52928499957663891837e+06
  +3.57739739623595122248e+06
  +3.62616567722100717947e+06
  +3.67559878376688575372e+06
  +3.72570577899858169258e+06
  +3.77649584959264704958e+06
  +3.82797830746149178594e+06
  +3.88016259146063728258e+06
  +3.93305826911925012246e+06
  +3.98667503839426022023e+06
  +4.04102272944840183482e+06
  +4.09611130645248154178e+06
  +4.15195086941222473979e+06
  +4.20855165602002292871e+06
  +4.26592404353192169219e+06
  +4.32407855067020282149e+06
  +4.38302583955189678818e+06
  +4.44277671764358785003e+06
  +4.50334213974287174642e+06
  +4.56473320998681522906e+06
  +4.62696118388780858368e+06
  +4.69003747039716038853e+06
  +4.75397363399683032185e+06
  +4.81878139681966975331e+06
  +4.88447264079858269542e+06
  +4.95105940984496288002e+06
  +5.01855391205684375018e+06
  +5.08696852195714600384e+06
  +5.15631578276243619621e+06
  +5.22660840868261642754e+06
  +5.29785928725195955485e+06
  +5.37008148169192858040e+06
  +5.44328823330620303750e+06
  +5.51749296390835475177e+06
  +5.59270927828261815012e+06
  +5.66895096667820774019e+06
  +5.74623200733764283359e+06
  +5.82456656905953120440e+06
  +5.90396901379629131407e+06
  +5.98445389928730018437e+06
  +6.06603598172791395336e+06
  +6.14873021847489476204e+06
  +6.23255177078870683908e+06
  +6.31751600661320425570e+06
  +6.40363850339320115745e+06
  +6.49093505093046836555e+06
  +6.57942165427864342928e+06
  +6.66911453667762689292e+06
  +6.76003014252796676010e+06
  +6.85218514040578994900e+06
  +6.94559642611884512007e+06
  +7.04028112580419797450e+06
  +7.13625659906815923750e+06
  +7.23354044216901157051e+06
  +7.33215049124313332140e+06
  +7.43210482557509653270e+06
  +7.53342177091234084219e+06
  +7.63611990282504167408e+06
  +7.74021805011177714914e+06
  +7.84573529825161863118e+06
  +7.95269099290329311043e+06
  +8.06110474345203302801e+06
  +8.17099642660478409380e+06
  +8.28238619003442768008e+06
  +8.39529445607368461788e+06
  +8.50974192545935139060e+06
  +8.62574958112762495875e+06
  +8.74333869206111133099e+06
  +8.86253081718833371997e+06
  +8.98334780933634750545e+06
  +9.10581181923727691174e+06
  +9.22994529958946071565e+06
  +9.35577100917394459248e+06
  +9.48331201702711544931e+06
  +9.61259170667019300163e+06
  +9.74363378039640560746e+06
  +9.87646226361658982933e+06
  +1.00111015092640370131e+07
  +1.01475762022594008595e+07
  +1.02859113640364371240e+07
  +1.04261323571294918656e+07
  +1.05682648898234758526e+07
  +1.07123350208672620356e+07
  +1.08583691642513293773e+07
  +1.10063940940505322069e+07
  +1.11564369493328928947e+07
  +1.13085252391353044659e+07
  +1.14626868475070837885e+07
  +1.16189500386222545058e+07
  +1.17773434619615394622e+07
  +1.19378961575649902225e+07
  +1.21006375613562297076e+07
  +1.22655975105392448604e+07
  +1.24328062490688171238e+07
  +1.26022944331954438239e+07
  +1.27740931370859127492e+07
  +1.29482338585204835981e+07
  +1.31247485246677082032e+07
  +1.33036694979380145669e+07
  +1.34850295819170568138e+07
  +1.36688620273799765855e+07
  +1.38552005383876208216e+07
  +1.40440792784659061581e+07
  +1.42355328768693897873e+07
  +1.44295964349302388728e+07
  +1.46263055324937570840e+07
  +1.48256962344416156411e+07
  +1.50278050973040685058e+07
  +1.52326691759622301906e+07
  +1.54403260304417908192e+07
  +1.56508137327993065119e+07
  +1.58641708741023689508e+07
  +1.60804365715049561113e+07
  +1.62996504754191972315e+07
  +1.65218527767849415541e+07
  +1.67470842144384030253e+07
  +1.69753860825812816620e+07
  +1.72068002383516728878e+07
  +1.74413691094982177019e+07
  +1.76791357021588645875e+07
  +1.79201436087456420064e+07
  +1.81644370159369707108e+07
  +1.84120607127788774669e+07
  +1.86630600988967008889e+07
  +1.89174811928186751902e+07
  +1.91753706404130682349e+07
  +1.94367757234402447939e+07
  +1.97017443682213909924e+07
  +1.99703251544253863394e+07
  +2.02425673239754252136e+07
  +2.05185207900771386921e+07
  +2.07982361463696919382e+07
  +2.10817646762017235160e+07
  +2.13691583620336651802e+07
  +2.16604698949682861567e+07
  +2.19557526844111420214e+07
  +2.22550608678627163172e+07
  +2.25584493208440430462e+07
  +2.28659736669576726854e+07
  +2.31776902880857549608e+07
  +2.34936563347271792591e+07
  +2.38139297364755645394e+07
  +2.41385692126402147114e+07
  +2.44676342830117344856e+07
  +2.48011852787744663656e+07
  +2.51392833535676971078e+07
  +2.54819904946976415813e+07
  +2.58293695345022529364e+07
  +2.61814841618709750473e+07
  +2.65383989339215569198e+07
  +2.69001792878360487521e+07
  +2.72668915528580732644e+07
  +2.76386029624537639320e+07
  +2.80153816666384190321e+07
  +2.83972967444711998105e+07
  +2.87844182167201340199e+07
  +2.91768170586998872459e+07
  +2.95745652132844030857e+07
  +2.99777356040969677269e+07
  +3.03864021488802097738e+07
  +3.08006397730481848121e+07
  +3.12205244234233461320e+07
  +3.16461330821606479585e+07
  +3.20775437808616459370e+07
  +3.25148356148808486760e+07
  +3.29580887578271217644e+07
  +3.34073844762629047036e+07
  +3.38628051446036323905e+07
  +3.43244342602204456925e+07
  +3.47923564587485641241e+07
  +3.52666575296046435833e+07
  +3.57474244317154139280e+07
  +3.62347453094608634710e+07
  +3.67287095088346898556e+07
  +3.72294075938251912594e+07
  +3.77369313630193099380e+07
  +3.82513738664330691099e+07
  +3.87728294225715696812e+07
  +3.93013936357213705778e+07
  +3.98371634134787544608e+07
  +4.03802369845168143511e+07
  +4.09307139165948927402e+07
  +4.14886951348134055734e+07
  +4.20542829401175603271e+07
  +4.26275810280533954501e+07
  +4.32086945077793747187e+07
  +4.37977299213372990489e+07
  +4.43947952631857395172e+07
  +4.50000000000000223517e+07
</indep>
<dep dBS11 frequency>
  -1.65416396705614978657e+01
  -1.64302940130241097449e+01
  -1.63191157172532399500e+01
  -1.62081091385423547990e+01
  -1.60972787397204086801e+01
  -1.59866290935370862769e+01
  -1.58761648850900733976e+01
  -1.57658909142947418758e+01
  -1.56558120983968080964e+01
  -1.55459334745284643020e+01
  -1.54362602023084498626e+01
  -1.53267975664867286412e+01
  -1.52175509796343551017e+01
  -1.51085259848791544357e+01
  -1.49997282586879912003e+01
  -1.48911636136963476673e+01
  -1.47828380015861160501e+01
  -1.46747575160124945626e+01
  -1.45669283955810708875e+01
  -1.44593570268761162367e+01
  -1.43520499475415075352e+01
  -1.42450138494155087443e+01
  -1.41382555817210295857e+01
  -1.40317821543130687445e+01
  -1.39256007409852156087e+01
  -1.38197186828372977629e+01
  -1.37141434917066025179e+01
  -1.36088828536651700318e+01
  -1.35039446325861192122e+01
  -1.33993368737821949566e+01
  -1.32950678077200930005e+01
  -1.31911458538145751618e+01
  -1.30875796243066311320e+01
  -1.29843779282307636436e+01
  -1.28815497754765466709e+01
  -1.27791043809505762141e+01
  -1.26770511688453542121e+01
  -1.25753997770223620023e+01
  -1.24741600615173950928e+01
  -1.23733421011770001741e+01
  -1.22729562024357825578e+01
  -1.21730129042454073840e+01
  -1.20735229831670132228e+01
  -1.19744974586402186389e+01
  -1.18759475984428988227e+01
  -1.17778849243576146932e+01
  -1.16803212180617688176e+01
  -1.15832685272605608873e+01
  -1.14867391720835136937e+01
  -1.13907457517671435454e+01
  -1.12953011516488821542e+01
  -1.12004185504993678535e+01
  -1.11061114282229738137e+01
  -1.10123935739591658489e+01
  -1.09192790946203501790e+01
  -1.08267824239051186908e+01
  -1.07349183318294532086e+01
  -1.06437019348223458337e+01
  -1.05531487064365325779e+01
  -1.04632744887297075564e+01
  -1.03740955043766742705e+01
  -1.02856283695782977361e+01
  -1.01978901078392638624e+01
  -1.01108981646931272991e+01
  -1.00246704234603427608e+01
  -9.93922522213271975033e+00
  -9.85458137148641988290e+00
  -9.77075817453478023822e+00
  -9.68777544744264673682e+00
  -9.60565354203506238662e+00
  -9.52441337004533217225e+00
  -9.44407642926115542537e+00
  -9.36466483174214303631e+00
  -9.28620133429850724838e+00
  -9.20870937143840251338e+00
  -9.13221309101144562703e+00
  -9.05673739279739464791e+00
  -8.98230797031342831360e+00
  -8.90895135613961208776e+00
  -8.83669497109212009889e+00
  -8.76556717760610482060e+00
  -8.69559733772653231654e+00
  -8.62681587614570766220e+00
  -8.55925434877105928422e+00
  -8.49294551735691527483e+00
  -8.42792343079005945583e+00
  -8.36422351368122285464e+00
  -8.30188266298517518749e+00
  -8.24093935345039341200e+00
  -8.18143375278808626661e+00
  -8.12340784754975686610e+00
  -8.06690558081486663866e+00
  -8.01197300291707925624e+00
  -7.95865843658112837034e+00
  -7.90701265800523778182e+00
  -7.85708909560893697943e+00
  -7.80894404837656708196e+00
  -7.76263692596690013659e+00
  -7.71823051303345231133e+00
  -7.67579126051398397124e+00
  -7.63538960700816282667e+00
  -7.59710033377637650176e+00
  -7.56100295737011585118e+00
  -7.52718216445597221309e+00
  -7.49572829403358298350e+00
  -7.46673787298920643707e+00
  -7.44031421178920915338e+00
  -7.41656806812436819598e+00
  -7.39561838749364142132e+00
  -7.37759313109871861514e+00
  -7.36263020304769089108e+00
  -7.35087849078784305590e+00
  -7.34249903496431777228e+00
  -7.33766634760820490868e+00
  -7.33656990078728377114e+00
  -7.33941581172179269288e+00
  -7.34642875502001757582e+00
  -7.35785413830812995428e+00
  -7.37396058434590706554e+00
  -7.39504277102982054970e+00
  -7.42142469086468636874e+00
  -7.45346340402216345211e+00
  -7.49155337463177239954e+00
  -7.53613149929687420325e+00
  -7.58768296108770989861e+00
  -7.64674807289246238895e+00
  -7.71393031295905728939e+00
  -7.78990580538497656704e+00
  -7.87543456283673748430e+00
  -7.97137389292569498167e+00
  -8.07869448046162474952e+00
  -8.19849980521291676894e+00
  -8.33204975313288187522e+00
  -8.48078954910985771676e+00
  -8.64638551200073557368e+00
  -8.83076965438343286507e+00
  -9.03619589110912002639e+00
  -9.26531169318911196342e+00
  -9.52125060359077934891e+00
  -9.80775340778322402002e+00
  -1.01293294080497560117e+01
  -1.04914750209553346849e+01
  -1.09009762883054719396e+01
  -1.13663376103447610888e+01
  -1.18984063685244674247e+01
  -1.25113128045528192445e+01
  -1.32239394465479662699e+01
  -1.40623268276015433997e+01
  -1.50638417799120603036e+01
  -1.62849355797141868152e+01
  -1.78170018605802980005e+01
  -1.98232532094708631121e+01
  -2.26426122453442282279e+01
  -2.71959919562928433834e+01
  -3.86009561258563422825e+01
  -3.31528253721531243059e+01
  -2.48031401811788327905e+01
  -2.04678208342301317657e+01
  -1.74851764648795970913e+01
  -1.51974314324966570666e+01
  -1.33390363776202995894e+01
  -1.17764944880754196532e+01
  -1.04334211141618773411e+01
  -9.26211691985860774423e+00
  -8.23078662752534029323e+00
  -7.31707703018145139140e+00
  -6.50451895780710476203e+00
  -5.78044169006597563509e+00
  -5.13469530205992175098e+00
  -4.55884578732846357241e+00
  -4.04566116291740573985e+00
  -3.58878308330018036543e+00
  -3.18251888480263556147e+00
  -2.82171180873504923170e+00
  -2.50166102618546659642e+00
  -2.21807216419192032575e+00
  -1.96702533341072771655e+00
  -1.74495217620756193355e+00
  -1.54861670612239898936e+00
  -1.37509699869841783837e+00
  -1.22176633608592521973e+00
  -1.08627338125500472188e+00
  -9.66521514644612778078e-01
  -8.60647734897479921301e-01
  -7.67001608419392133520e-01
  -6.84124726781989656033e-01
  -6.10731050477552162015e-01
  -5.45688417462356856191e-01
  -4.88001396273681331550e-01
  -4.36795577234297904834e-01
  -3.91303325769869536632e-01
  -3.50850969627495512526e-01
  -3.14847355159301123262e-01
  -2.82773684268768310535e-01
  -2.54174530355066596865e-01
  -2.28649926066280984038e-01
  -2.05848415686920693801e-01
  -1.85460968758557720459e-01
  -1.67215657684103985448e-01
  -1.50873009566291876871e-01
  -1.36221950637796546113e-01
</dep>
<dep dBS21 frequency>
  -9.73823755769587517950e-02
  -9.99406942567596379146e-02
  -1.02563019550370795874e-01
  -1.05250776416349681175e-01
  -1.08005411592157082867e-01
  -1.10828393318020163028e-01
  -1.13721211011693634774e-01
  -1.16685374890866166986e-01
  -1.19722415540029769598e-01
  -1.22833883418364875340e-01
  -1.26021348305014102564e-01
  -1.29286398678026603903e-01
  -1.32630641023051387695e-01
  -1.36055699067675672786e-01
  -1.39563212937197894670e-01
  -1.43154838227256220318e-01
  -1.46832244988844173861e-01
  -1.50597116620764803763e-01
  -1.54451148664569104518e-01
  -1.58396047496677211397e-01
  -1.62433528912376334841e-01
  -1.66565316595891077522e-01
  -1.70793140470856030788e-01
  -1.75118734924954166932e-01
  -1.79543836902522180310e-01
  -1.84070183858582286929e-01
  -1.88699511567539890411e-01
  -1.93433551779557899586e-01
  -1.98274029717430577691e-01
  -2.03222661406470550549e-01
  -2.08281150829704775340e-01
  -2.13451186900497774657e-01
  -2.18734440244371525219e-01
  -2.24132559781659246312e-01
  -2.29647169102310505506e-01
  -2.35279862623891833362e-01
  -2.41032201523773803586e-01
  -2.46905709436042453131e-01
  -2.52901867903456589737e-01
  -2.59022111574792601729e-01
  -2.65267823137292302338e-01
  -2.71640327974079387463e-01
  -2.78140888535913233248e-01
  -2.84770698416627165983e-01
  -2.91530876121257331857e-01
  -2.98422458515750443908e-01
  -3.05446393946966154864e-01
  -3.12603535021363565516e-01
  -3.19894631030880782774e-01
  -3.27320320013971932660e-01
  -3.34881120440002122418e-01
  -3.42577422504830031436e-01
  -3.50409479025360959259e-01
  -3.58377395920808972107e-01
  -3.66481122268223713512e-01
  -3.74720439919869585665e-01
  -3.83094952669952082402e-01
  -3.91604074958204595447e-01
  -4.00247020097767858271e-01
  -4.09022788014940519297e-01
  -4.17930152488347250728e-01
  -4.26967647875192146678e-01
  -4.36133555312315457364e-01
  -4.45425888380036938408e-01
  -4.54842378216809395397e-01
  -4.64380458073009594333e-01
  -4.74037247292454000380e-01
  -4.83809534710454347550e-01
  -4.93693761457650370783e-01
  -5.03686003159300454968e-01
  -5.13781951520038582260e-01
  -5.23976895284775756600e-01
  -5.34265700567007506550e-01
  -5.44642790536439935778e-01
  -5.55102124458672685492e-01
  -5.65637176080664771938e-01
  -5.76240911356507679031e-01
  -5.86905765509586729856e-01
  -5.97623619428144570165e-01
  -6.08385775393080363571e-01
  -6.19182932138533481670e-01
  -6.30005159247702395398e-01
  -6.40841870888740450241e-01
  -6.51681798898325781444e-01
  -6.62512965223311711682e-01
  -6.73322653734682030624e-01
  -6.84097381431863382772e-01
  -6.94822869060295333909e-01
  -7.05484011170505853627e-01
  -7.16064845653253900792e-01
  -7.26548522792565876216e-01
  -7.36917273886930512816e-01
  -7.47152379498648322453e-01
  -7.57234137402722051746e-01
  -7.67141830319827633389e-01
  -7.76853693533075539968e-01
  -7.86346882506183453287e-01
  -7.95597440641156783414e-01
  -8.04580267337577370590e-01
  -8.13269086543436103831e-01
  -8.21636416019762672036e-01
  -8.29653537579119637613e-01
  -8.37290468601410542426e-01
  -8.44515935181880283977e-01
  -8.51297347324919684297e-01
  -8.57600776666522568448e-01
  -8.63390937288289861407e-01
  -8.68631170279327458061e-01
  -8.73283432810891824261e-01
  -8.77308292615383678026e-01
  -8.80664928908495792115e-01
  -8.83311140965005736625e-01
  -8.85203365758555626996e-01
  -8.86296706308867365820e-01
  -8.86544972650869400610e-01
  -8.85900737656669767794e-01
  -8.84315410309492455632e-01
  -8.81739329457682297075e-01
  -8.78121881576836127437e-01
  -8.73411646649717487989e-01
  -8.67556576950831437323e-01
  -8.60504214309999571064e-01
  -8.52201952344308732989e-01
  -8.42597351209840805808e-01
  -8.31638513655717948048e-01
  -8.19274532587240256198e-01
  -8.05456021988719461646e-01
  -7.90135744949110874202e-01
  -7.73269354703508549065e-01
  -7.54816267081486302892e-01
  -7.34740685566222073710e-01
  -7.13012803339342360331e-01
  -6.89610210228707831703e-01
  -6.64519536386564246833e-01
  -6.37738368776559316764e-01
  -6.09277481072723503530e-01
  -5.79163422250203008268e-01
  -5.47441513773991861314e-01
  -5.14179309553526531218e-01
  -4.79470576260962011439e-01
  -4.43439853534911776478e-01
  -4.06247653064934433065e-01
  -3.68096351282967193530e-01
  -3.29236820651029271634e-01
  -2.89975827088163551348e-01
  -2.50684193095149332464e-01
  -2.11805684172866631743e-01
  -1.73866516206991339466e-01
  -1.37485299301765506730e-01
  -1.03383124944774903997e-01
  -7.23933652324910692499e-02
  -4.54705844015102500499e-02
  -2.36977676135650336398e-02
  -8.29086021097663432300e-03
  -5.99402663589208937328e-04
  -2.10187489804151625417e-03
  -1.43942754183010342139e-02
  -3.91705150038266433632e-02
  -7.81934674551993669223e-02
  -1.33256049556980005200e-01
  -2.06132530575493133629e-01
  -2.98521377424079581431e-01
  -4.11982229432055535590e-01
  -5.47870886297286086020e-01
  -7.07277235083127564508e-01
  -8.90971565988892155730e-01
  -1.09936451297342285827e+00
  -1.33248481657517325871e+00
  -1.58997734029857507032e+00
  -1.87112156145579877631e+00
  -2.17486850570145895389e+00
  -2.49989221643999171008e+00
  -2.84465065846669329375e+00
  -3.20745058495074264471e+00
  -3.58651129333366336382e+00
  -3.98002315916184823408e+00
  -4.38619809992979892144e+00
  -4.80331042564967347630e+00
  -5.22972768356301287440e+00
  -5.66393198942920506056e+00
  -6.10453292354914012208e+00
  -6.55027337951836052810e+00
  -7.00002984291158725227e+00
  -7.45280851124390242290e+00
  -7.90773850692469881807e+00
  -8.36406323095516590627e+00
  -8.82113069218958223416e+00
  -9.27838344746971088739e+00
  -9.73534861387209815575e+00
  -1.01916282702999438925e+01
  -1.06468904515781108699e+01
  -1.11008608512617676922e+01
  -1.15533152855143619320e+01
  -1.20040729253281064359e+01
  -1.24529902739802125211e+01
  -1.28999558473907782741e+01
  -1.33448855040233844704e+01
  -1.37877183658013358070e+01
  -1.42284132703809085285e+01
  -1.46669456966598481529e+01
  -1.51033051086008782704e+01
</dep>
<dep S[1,1] frequency>
  -3.81996523469782800486e-02-j1.43924902573842661280e-01
  -3.91987039271788212380e-02-j1.45646475247635687200e-01
  -4.02225367449680418219e-02-j1.47382088066860233999e-01
  -4.12716931906404183028e-02-j1.49131577334298520698e-01
  -4.23467236047749828742e-02-j1.50894764717322438230e-01
  -4.34481861673123095913e-02-j1.52671456678869832402e-01
  -4.45766467695441689911e-02-j1.54461443893885830292e-01
  -4.57326788680731885495e-02-j1.56264500651210613835e-01
  -4.69168633197635728815e-02-j1.58080384240917637406e-01
  -4.81297881966736978976e-02-j1.59908834327139703912e-01
  -4.93720485799308134167e-02-j1.61749572306450067893e-01
  -5.06442463314680235698e-02-j1.63602300651900567363e-01
  -5.19469898425232792794e-02-j1.65466702242852259364e-01
  -5.32808937577580118972e-02-j1.67342439680775612043e-01
  -5.46465786738300068892e-02-j1.69229154591234026705e-01
  -5.60446708112133512580e-02-j1.71126466912312424906e-01
  -5.74758016580437167131e-02-j1.73033974169790855102e-01
  -5.89406075847231647469e-02-j1.74951250739417862867e-01
  -6.04397294279981692200e-02-j1.76877847096682694339e-01
  -6.19738120431985520242e-02-j1.78813289054543245182e-01
  -6.35435038232922133616e-02-j1.80757076989614989815e-01
  -6.51494561833927676719e-02-j1.82708685057391906348e-01
  -6.67923230093344505454e-02-j1.84667560397121649496e-01
  -6.84727600689000598377e-02-j1.86633122327025835485e-01
  -7.01914243842796797823e-02-j1.88604761530617004439e-01
  -7.19489735643115690955e-02-j1.90581839234933464455e-01
  -7.37460650950502727419e-02-j1.92563686381576615325e-01
  -7.55833555871866791254e-02-j1.94549602791513676081e-01
  -7.74614999788459379637e-02-j1.96538856324673660847e-01
  -7.93811506922709048117e-02-j1.98530682035444328015e-01
